T2F8C 000:078.348   SEGGER J-Link V7.54a Log File
T2F8C 000:078.501   DLL Compiled: Sep  7 2021 14:21:19
T2F8C 000:078.506   Logging started @ 2026-04-17 06:51
T2F8C 000:078.509 - 78.511ms
T2F8C 000:078.520 JLINK_SetWarnOutHandler(...)
T2F8C 000:078.525 - 0.006ms
T2F8C 000:078.529 JLINK_OpenEx(...)
T2F8C 000:080.062   Firmware: J-Link V9 compiled May  7 2021 16:26:12
T2F8C 000:080.618   Firmware: J-Link V9 compiled May  7 2021 16:26:12
T2F8C 000:080.727   Decompressing FW timestamp took 90 us
T2F8C 000:088.988   Hardware: V9.50
T2F8C 000:089.005   S/N: 59524995
T2F8C 000:089.010   OEM: SEGGER
T2F8C 000:089.015   Feature(s): JFlash, GDB, RDI, FlashBP, FlashDL
T2F8C 000:090.969   TELNET listener socket opened on port 19021
T2F8C 000:091.103   WEBSRV Starting webserver
T2F8C 000:091.266   WEBSRV Webserver running on local port 19080
T2F8C 000:118.175 - 39.668ms returns "O.K."
T2F8C 000:118.233 JLINK_GetEmuCaps()
T2F8C 000:118.239 - 0.007ms returns 0xB9FF7BBF
T2F8C 000:118.246 JLINK_TIF_GetAvailable(...)
T2F8C 000:118.727 - 0.492ms
T2F8C 000:118.743 JLINK_SetErrorOutHandler(...)
T2F8C 000:118.747 - 0.005ms
T2F8C 000:118.777 JLINK_ExecCommand("ProjectFile = "D:\sike_local\AiKeyBoard\Project\JLinkSettings.ini"", ...). 
T2F8C 000:125.983   Ref file found at: D:\Keil_v5\ARM\Segger\JLinkDevices.ref
T2F8C 000:126.105   XML referenced by ref file: C:\Program Files\SEGGER\JLink\JLinkDevices.xml
T2F8C 000:126.556   C:\Program Files\SEGGER\JLink\JLinkDevices.xml evaluated successfully.
T2F8C 000:147.350   Device "CORTEX-M4" selected.
T2F8C 000:147.907 - 29.137ms returns 0x00
T2F8C 000:150.530 JLINK_ExecCommand("Device = PY32F403xC", ...). 
T2F8C 000:151.347   Device "CORTEX-M4" selected.
T2F8C 000:151.714 - 1.174ms returns 0x00
T2F8C 000:151.725 JLINK_ExecCommand("DisableConnectionTimeout", ...). 
T2F8C 000:151.731 - 0.003ms returns 0x01
T2F8C 000:151.737 JLINK_GetHardwareVersion()
T2F8C 000:151.740 - 0.005ms returns 95000
T2F8C 000:151.744 JLINK_GetDLLVersion()
T2F8C 000:151.748 - 0.004ms returns 75401
T2F8C 000:151.752 JLINK_GetOEMString(...)
T2F8C 000:151.760 JLINK_GetFirmwareString(...)
T2F8C 000:151.765 - 0.006ms
T2F8C 000:152.772 JLINK_GetDLLVersion()
T2F8C 000:152.782 - 0.012ms returns 75401
T2F8C 000:152.787 JLINK_GetCompileDateTime()
T2F8C 000:152.790 - 0.004ms
T2F8C 000:153.104 JLINK_GetFirmwareString(...)
T2F8C 000:153.113 - 0.010ms
T2F8C 000:153.420 JLINK_GetHardwareVersion()
T2F8C 000:153.428 - 0.009ms returns 95000
T2F8C 000:153.729 JLINK_GetSN()
T2F8C 000:153.737 - 0.010ms returns 59524995
T2F8C 000:154.046 JLINK_GetOEMString(...)
T2F8C 000:154.869 JLINK_TIF_Select(JLINKARM_TIF_SWD)
T2F8C 000:156.405 - 1.545ms returns 0x00
T2F8C 000:156.420 JLINK_HasError()
T2F8C 000:156.437 JLINK_SetSpeed(5000)
T2F8C 000:156.758 - 0.325ms
T2F8C 000:156.766 JLINK_GetId()
T2F8C 000:158.453   Found SW-DP with ID 0x2BA01477
T2F8C 000:162.431   DPIDR: 0x2BA01477
T2F8C 000:162.763   Scanning AP map to find all available APs
T2F8C 000:164.040   AP[1]: Stopped AP scan as end of AP map has been reached
T2F8C 000:164.458   AP[0]: AHB-AP (IDR: 0x24770011)
T2F8C 000:166.441   Iterating through AP map to find AHB-AP to use
T2F8C 000:167.884   AP[0]: Core found
T2F8C 000:168.215   AP[0]: AHB-AP ROM base: 0xE00FF000
T2F8C 000:169.102   CPUID register: 0x410FC241. Implementer code: 0x41 (ARM)
T2F8C 000:169.425   Found Cortex-M4 r0p1, Little endian.
T2F8C 000:271.539   -- Max. mem block: 0x00010C40
T2F8C 000:271.925   CPU_ReadMem(4 bytes @ 0xE000EDF0)
T2F8C 000:272.423   CPU_WriteMem(4 bytes @ 0xE000EDF0)
T2F8C 000:272.902   CPU_ReadMem(4 bytes @ 0xE0002000)
T2F8C 000:279.322   FPUnit: 6 code (BP) slots and 2 literal slots
T2F8C 000:279.343   CPU_ReadMem(4 bytes @ 0xE000EDFC)
T2F8C 000:279.825   CPU_WriteMem(4 bytes @ 0xE000EDFC)
T2F8C 000:280.292   CPU_ReadMem(4 bytes @ 0xE0001000)
T2F8C 000:280.757   CPU_WriteMem(4 bytes @ 0xE0001000)
T2F8C 000:281.257   CPU_ReadMem(4 bytes @ 0xE000ED88)
T2F8C 000:281.755   CPU_WriteMem(4 bytes @ 0xE000ED88)
T2F8C 000:282.298   CPU_ReadMem(4 bytes @ 0xE000ED88)
T2F8C 000:282.847   CPU_WriteMem(4 bytes @ 0xE000ED88)
T2F8C 000:285.616   CoreSight components:
T2F8C 000:287.952   ROMTbl[0] @ E00FF000
T2F8C 000:287.968   CPU_ReadMem(64 bytes @ 0xE00FF000)
T2F8C 000:288.727   CPU_ReadMem(32 bytes @ 0xE000EFE0)
T2F8C 000:291.296   [0][0]: E000E000 CID B105E00D PID 000BB00C SCS-M7
T2F8C 000:291.311   CPU_ReadMem(32 bytes @ 0xE0001FE0)
T2F8C 000:293.886   [0][1]: E0001000 CID B105E00D PID 003BB002 DWT
T2F8C 000:293.902   CPU_ReadMem(32 bytes @ 0xE0002FE0)
T2F8C 000:296.460   [0][2]: E0002000 CID B105E00D PID 002BB003 FPB
T2F8C 000:296.475   CPU_ReadMem(32 bytes @ 0xE0000FE0)
T2F8C 000:301.693   [0][3]: E0000000 CID B105E00D PID 003BB001 ITM
T2F8C 000:301.721   CPU_ReadMem(32 bytes @ 0xE0040FE0)
T2F8C 000:304.344   [0][4]: E0040000 CID B105900D PID 000BB9A1 TPIU
T2F8C 000:304.361   CPU_ReadMem(32 bytes @ 0xE0041FE0)
T2F8C 000:307.784   [0][5]: E0041000 CID B105900D PID 000BB925 ETM
T2F8C 000:308.242 - 151.480ms returns 0x2BA01477
T2F8C 000:308.295 JLINK_GetDLLVersion()
T2F8C 000:308.299 - 0.006ms returns 75401
T2F8C 000:308.304 JLINK_CORE_GetFound()
T2F8C 000:308.307 - 0.004ms returns 0xE0000FF
T2F8C 000:308.311 JLINK_GetDebugInfo(0x100 = JLINKARM_ROM_TABLE_ADDR_INDEX)
T2F8C 000:308.316   Value=0xE00FF000
T2F8C 000:308.320 - 0.010ms returns 0
T2F8C 000:310.201 JLINK_GetDebugInfo(0x100 = JLINKARM_ROM_TABLE_ADDR_INDEX)
T2F8C 000:310.214   Value=0xE00FF000
T2F8C 000:310.219 - 0.019ms returns 0
T2F8C 000:310.223 JLINK_GetDebugInfo(0x101 = JLINKARM_DEBUG_INFO_ETM_ADDR_INDEX)
T2F8C 000:310.227   Value=0xE0041000
T2F8C 000:310.231 - 0.009ms returns 0
T2F8C 000:310.253 JLINK_ReadMemEx(0xE0041FD0, 0x20 Bytes, Flags = 0x02000004)
T2F8C 000:310.278   CPU_ReadMem(32 bytes @ 0xE0041FD0)
T2F8C 000:310.929   Data:  04 00 00 00 00 00 00 00 00 00 00 00 00 00 00 00 ...
T2F8C 000:310.937 - 0.685ms returns 32 (0x20)
T2F8C 000:310.942 JLINK_GetDebugInfo(0x102 = JLINKARM_DEBUG_INFO_MTB_ADDR_INDEX)
T2F8C 000:310.945   Value=0x00000000
T2F8C 000:310.950 - 0.009ms returns 0
T2F8C 000:310.954 JLINK_GetDebugInfo(0x103 = JLINKARM_DEBUG_INFO_TPIU_ADDR_INDEX)
T2F8C 000:310.957   Value=0xE0040000
T2F8C 000:310.961 - 0.009ms returns 0
T2F8C 000:310.965 JLINK_GetDebugInfo(0x104 = JLINKARM_DEBUG_INFO_ITM_ADDR_INDEX)
T2F8C 000:310.968   Value=0xE0000000
T2F8C 000:310.973 - 0.009ms returns 0
T2F8C 000:310.976 JLINK_GetDebugInfo(0x105 = JLINKARM_DEBUG_INFO_DWT_ADDR_INDEX)
T2F8C 000:310.979   Value=0xE0001000
T2F8C 000:310.984 - 0.009ms returns 0
T2F8C 000:310.988 JLINK_GetDebugInfo(0x106 = JLINKARM_DEBUG_INFO_FPB_ADDR_INDEX)
T2F8C 000:310.991   Value=0xE0002000
T2F8C 000:310.996 - 0.009ms returns 0
T2F8C 000:310.999 JLINK_GetDebugInfo(0x107 = JLINKARM_DEBUG_INFO_NVIC_ADDR_INDEX)
T2F8C 000:311.002   Value=0xE000E000
T2F8C 000:311.007 - 0.009ms returns 0
T2F8C 000:311.010 JLINK_GetDebugInfo(0x10C = JLINKARM_DEBUG_INFO_DBG_ADDR_INDEX)
T2F8C 000:311.014   Value=0xE000EDF0
T2F8C 000:311.018 - 0.009ms returns 0
T2F8C 000:311.022 JLINK_GetDebugInfo(0x01 = Unknown)
T2F8C 000:311.026   Value=0x00000001
T2F8C 000:311.030 - 0.009ms returns 0
T2F8C 000:311.034 JLINK_ReadMemU32(0xE000ED00, 0x1 Items)
T2F8C 000:311.040   CPU_ReadMem(4 bytes @ 0xE000ED00)
T2F8C 000:311.519   Data:  41 C2 0F 41
T2F8C 000:311.528   Debug reg: CPUID
T2F8C 000:311.532 - 0.500ms returns 1 (0x1)
T2F8C 000:311.537 JLINK_GetDebugInfo(0x10F = JLINKARM_DEBUG_INFO_HAS_CORTEX_M_SECURITY_EXT_INDEX)
T2F8C 000:311.541   Value=0x00000000
T2F8C 000:311.545 - 0.009ms returns 0
T2F8C 000:311.549 JLINK_HasError()
T2F8C 000:311.554 JLINK_SetResetType(JLINKARM_CM3_RESET_TYPE_NORMAL)
T2F8C 000:311.558 - 0.005ms returns JLINKARM_CM3_RESET_TYPE_NORMAL
T2F8C 000:311.562 JLINK_Reset()
T2F8C 000:311.583   CPU is running
T2F8C 000:311.589   CPU_WriteMem(4 bytes @ 0xE000EDF0)
T2F8C 000:312.068   CPU is running
T2F8C 000:312.076   CPU_WriteMem(4 bytes @ 0xE000EDFC)
T2F8C 000:316.600   Reset: Halt core after reset via DEMCR.VC_CORERESET.
T2F8C 000:320.237   Reset: Reset device via AIRCR.SYSRESETREQ.
T2F8C 000:320.344   CPU is running
T2F8C 000:320.356   CPU_WriteMem(4 bytes @ 0xE000ED0C)
T2F8C 000:373.754   CPU_ReadMem(4 bytes @ 0xE000EDF0)
T2F8C 000:374.258   CPU_ReadMem(4 bytes @ 0xE000EDF0)
T2F8C 000:374.727   CPU is running
T2F8C 000:374.747   CPU_WriteMem(4 bytes @ 0xE000EDF0)
T2F8C 000:375.252   CPU is running
T2F8C 000:375.263   CPU_WriteMem(4 bytes @ 0xE000EDFC)
T2F8C 000:380.878   CPU_ReadMem(4 bytes @ 0xE000EDF0)
T2F8C 000:383.793   CPU_WriteMem(4 bytes @ 0xE0002000)
T2F8C 000:384.318   CPU_ReadMem(4 bytes @ 0xE000EDFC)
T2F8C 000:384.826   CPU_ReadMem(4 bytes @ 0xE0001000)
T2F8C 000:385.307 - 73.750ms
T2F8C 000:385.371 JLINK_Halt()
T2F8C 000:385.384 - 0.015ms returns 0x00
T2F8C 000:385.391 JLINK_ReadMemU32(0xE000EDF0, 0x1 Items)
T2F8C 000:385.403   CPU_ReadMem(4 bytes @ 0xE000EDF0)
T2F8C 000:385.890   Data:  03 00 03 00
T2F8C 000:385.899   Debug reg: DHCSR
T2F8C 000:385.904 - 0.514ms returns 1 (0x1)
T2F8C 000:385.920 JLINK_WriteU32_64(0xE000EDF0, 0xA05F0003)
T2F8C 000:385.926   Debug reg: DHCSR
T2F8C 000:386.173   CPU_WriteMem(4 bytes @ 0xE000EDF0)
T2F8C 000:386.665 - 0.748ms returns 0 (0x00000000)
T2F8C 000:386.673 JLINK_WriteU32_64(0xE000EDFC, 0x01000000)
T2F8C 000:386.677   Debug reg: DEMCR
T2F8C 000:386.687   CPU_WriteMem(4 bytes @ 0xE000EDFC)
T2F8C 000:387.176 - 0.506ms returns 0 (0x00000000)
T2F8C 000:396.328 JLINK_GetHWStatus(...)
T2F8C 000:396.740 - 0.417ms returns 0
T2F8C 000:404.402 JLINK_GetNumBPUnits(Type = 0xFFFFFF00)
T2F8C 000:404.425 - 0.024ms returns 0x06
T2F8C 000:404.429 JLINK_GetNumBPUnits(Type = 0xF0)
T2F8C 000:404.433 - 0.005ms returns 0x2000
T2F8C 000:404.437 JLINK_GetNumWPUnits()
T2F8C 000:404.440 - 0.004ms returns 4
T2F8C 000:413.955 JLINK_GetSpeed()
T2F8C 000:413.976 - 0.023ms returns 4000
T2F8C 000:419.611 JLINK_ReadMemU32(0xE000E004, 0x1 Items)
T2F8C 000:419.650   CPU_ReadMem(4 bytes @ 0xE000E004)
T2F8C 000:420.180   Data:  01 00 00 00
T2F8C 000:420.189 - 0.580ms returns 1 (0x1)
T2F8C 000:420.195 JLINK_ReadMemU32(0xE000E004, 0x1 Items)
T2F8C 000:420.202   CPU_ReadMem(4 bytes @ 0xE000E004)
T2F8C 000:420.633   Data:  01 00 00 00
T2F8C 000:420.641 - 0.447ms returns 1 (0x1)
T2F8C 000:420.646 JLINK_WriteMemEx(0xE0001000, 0x0000001C Bytes, Flags = 0x02000004)
T2F8C 000:420.650   Data:  01 00 00 00 00 00 00 00 00 00 00 00 00 00 00 00 ...
T2F8C 000:420.662   CPU_WriteMem(28 bytes @ 0xE0001000)
T2F8C 000:421.379 - 0.739ms returns 0x1C
T2F8C 000:421.395 JLINK_Halt()
T2F8C 000:421.399 - 0.005ms returns 0x00
T2F8C 000:421.403 JLINK_IsHalted()
T2F8C 000:421.407 - 0.006ms returns TRUE
T2F8C 000:424.435 JLINK_WriteMem(0x20000000, 0x2B8 Bytes, ...)
T2F8C 000:424.444   Data:  00 BE 0A E0 0D 78 2D 06 68 40 08 24 40 00 00 D3 ...
T2F8C 000:424.665   CPU_WriteMem(696 bytes @ 0x20000000)
T2F8C 000:427.532 - 3.102ms returns 0x2B8
T2F8C 000:427.568 JLINK_HasError()
T2F8C 000:427.574 JLINK_WriteReg(R0, 0x08000000)
T2F8C 000:427.584 - 0.012ms returns 0
T2F8C 000:427.588 JLINK_WriteReg(R1, 0x00B71B00)
T2F8C 000:427.592 - 0.005ms returns 0
T2F8C 000:427.596 JLINK_WriteReg(R2, 0x00000001)
T2F8C 000:427.599 - 0.005ms returns 0
T2F8C 000:427.603 JLINK_WriteReg(R3, 0x00000000)
T2F8C 000:427.606 - 0.005ms returns 0
T2F8C 000:427.610 JLINK_WriteReg(R4, 0x00000000)
T2F8C 000:427.614 - 0.005ms returns 0
T2F8C 000:427.618 JLINK_WriteReg(R5, 0x00000000)
T2F8C 000:427.621 - 0.004ms returns 0
T2F8C 000:427.625 JLINK_WriteReg(R6, 0x00000000)
T2F8C 000:427.628 - 0.004ms returns 0
T2F8C 000:427.632 JLINK_WriteReg(R7, 0x00000000)
T2F8C 000:427.635 - 0.004ms returns 0
T2F8C 000:427.639 JLINK_WriteReg(R8, 0x00000000)
T2F8C 000:427.656 - 0.018ms returns 0
T2F8C 000:427.660 JLINK_WriteReg(R9, 0x200002B4)
T2F8C 000:427.663 - 0.005ms returns 0
T2F8C 000:427.667 JLINK_WriteReg(R10, 0x00000000)
T2F8C 000:427.670 - 0.005ms returns 0
T2F8C 000:427.674 JLINK_WriteReg(R11, 0x00000000)
T2F8C 000:427.677 - 0.004ms returns 0
T2F8C 000:427.681 JLINK_WriteReg(R12, 0x00000000)
T2F8C 000:427.684 - 0.004ms returns 0
T2F8C 000:427.688 JLINK_WriteReg(R13 (SP), 0x20001000)
T2F8C 000:427.696 - 0.010ms returns 0
T2F8C 000:427.701 JLINK_WriteReg(R14, 0x20000001)
T2F8C 000:427.704 - 0.005ms returns 0
T2F8C 000:427.708 JLINK_WriteReg(R15 (PC), 0x20000020)
T2F8C 000:427.716 - 0.009ms returns 0
T2F8C 000:427.720 JLINK_WriteReg(XPSR, 0x01000000)
T2F8C 000:427.723 - 0.005ms returns 0
T2F8C 000:427.727 JLINK_WriteReg(MSP, 0x20001000)
T2F8C 000:427.730 - 0.004ms returns 0
T2F8C 000:427.734 JLINK_WriteReg(PSP, 0x20001000)
T2F8C 000:427.737 - 0.004ms returns 0
T2F8C 000:427.741 JLINK_WriteReg(CFBP, 0x00000000)
T2F8C 000:427.745 - 0.005ms returns 0
T2F8C 000:427.749 JLINK_SetBPEx(Addr = 0x20000000, Type = 0xFFFFFFF2)
T2F8C 000:427.760   CPU_ReadMem(4 bytes @ 0x20000000)
T2F8C 000:428.249   CPU_WriteMem(4 bytes @ 0x20000000)
T2F8C 000:428.721   CPU_ReadMem(4 bytes @ 0x20000000)
T2F8C 000:429.309   CPU_WriteMem(4 bytes @ 0x20000000)
T2F8C 000:429.751   CPU_ReadMem(2 bytes @ 0x20000000)
T2F8C 000:430.249 - 2.503ms returns 0x00000001
T2F8C 000:430.256 JLINK_Go()
T2F8C 000:430.261   CPU_WriteMem(2 bytes @ 0x20000000)
T2F8C 000:430.798   CPU_ReadMem(4 bytes @ 0xE0001000)
T2F8C 000:431.308   CPU_WriteMem(4 bytes @ 0xE0002008)
T2F8C 000:431.315   CPU_WriteMem(4 bytes @ 0xE000200C)
T2F8C 000:431.321   CPU_WriteMem(4 bytes @ 0xE0002010)
T2F8C 000:431.326   CPU_WriteMem(4 bytes @ 0xE0002014)
T2F8C 000:431.331   CPU_WriteMem(4 bytes @ 0xE0002018)
T2F8C 000:431.336   CPU_WriteMem(4 bytes @ 0xE000201C)
T2F8C 000:432.579   CPU_WriteMem(4 bytes @ 0xE0001004)
T2F8C 000:435.242 - 4.998ms
T2F8C 000:435.268 JLINK_IsHalted()
T2F8C 000:437.541   CPU_ReadMem(2 bytes @ 0x20000000)
T2F8C 000:438.022 - 2.760ms returns TRUE
T2F8C 000:438.040 JLINK_ReadReg(R15 (PC))
T2F8C 000:438.048 - 0.010ms returns 0x20000000
T2F8C 000:438.055 JLINK_ClrBPEx(BPHandle = 0x00000001)
T2F8C 000:438.059 - 0.006ms returns 0x00
T2F8C 000:438.102 JLINK_ReadReg(R0)
T2F8C 000:438.113 - 0.013ms returns 0x00000000
T2F8C 000:438.732 JLINK_HasError()
T2F8C 000:438.746 JLINK_WriteReg(R0, 0x08000000)
T2F8C 000:438.753 - 0.007ms returns 0
T2F8C 000:438.757 JLINK_WriteReg(R1, 0x00000800)
T2F8C 000:438.760 - 0.005ms returns 0
T2F8C 000:438.764 JLINK_WriteReg(R2, 0x000000FF)
T2F8C 000:438.768 - 0.005ms returns 0
T2F8C 000:438.771 JLINK_WriteReg(R3, 0x00000000)
T2F8C 000:438.775 - 0.004ms returns 0
T2F8C 000:438.778 JLINK_WriteReg(R4, 0x00000000)
T2F8C 000:438.782 - 0.005ms returns 0
T2F8C 000:438.786 JLINK_WriteReg(R5, 0x00000000)
T2F8C 000:438.789 - 0.004ms returns 0
T2F8C 000:438.793 JLINK_WriteReg(R6, 0x00000000)
T2F8C 000:438.796 - 0.004ms returns 0
T2F8C 000:438.800 JLINK_WriteReg(R7, 0x00000000)
T2F8C 000:438.803 - 0.004ms returns 0
T2F8C 000:438.807 JLINK_WriteReg(R8, 0x00000000)
T2F8C 000:438.811 - 0.005ms returns 0
T2F8C 000:438.814 JLINK_WriteReg(R9, 0x200002B4)
T2F8C 000:438.818 - 0.005ms returns 0
T2F8C 000:438.822 JLINK_WriteReg(R10, 0x00000000)
T2F8C 000:438.825 - 0.005ms returns 0
T2F8C 000:438.829 JLINK_WriteReg(R11, 0x00000000)
T2F8C 000:438.832 - 0.004ms returns 0
T2F8C 000:438.836 JLINK_WriteReg(R12, 0x00000000)
T2F8C 000:438.839 - 0.004ms returns 0
T2F8C 000:438.843 JLINK_WriteReg(R13 (SP), 0x20001000)
T2F8C 000:438.847 - 0.005ms returns 0
T2F8C 000:438.850 JLINK_WriteReg(R14, 0x20000001)
T2F8C 000:438.854 - 0.005ms returns 0
T2F8C 000:438.858 JLINK_WriteReg(R15 (PC), 0x20000204)
T2F8C 000:438.861 - 0.005ms returns 0
T2F8C 000:438.865 JLINK_WriteReg(XPSR, 0x01000000)
T2F8C 000:438.868 - 0.005ms returns 0
T2F8C 000:438.872 JLINK_WriteReg(MSP, 0x20001000)
T2F8C 000:438.876 - 0.005ms returns 0
T2F8C 000:438.880 JLINK_WriteReg(PSP, 0x20001000)
T2F8C 000:438.883 - 0.004ms returns 0
T2F8C 000:438.887 JLINK_WriteReg(CFBP, 0x00000000)
T2F8C 000:438.890 - 0.004ms returns 0
T2F8C 000:438.894 JLINK_SetBPEx(Addr = 0x20000000, Type = 0xFFFFFFF2)
T2F8C 000:438.898 - 0.005ms returns 0x00000002
T2F8C 000:438.902 JLINK_Go()
T2F8C 000:438.910   CPU_ReadMem(4 bytes @ 0xE0001000)
T2F8C 000:441.635 - 2.740ms
T2F8C 000:441.647 JLINK_IsHalted()
T2F8C 000:443.897   CPU_ReadMem(2 bytes @ 0x20000000)
T2F8C 000:444.394 - 2.751ms returns TRUE
T2F8C 000:444.402 JLINK_ReadReg(R15 (PC))
T2F8C 000:444.407 - 0.007ms returns 0x20000000
T2F8C 000:444.411 JLINK_ClrBPEx(BPHandle = 0x00000002)
T2F8C 000:444.415 - 0.005ms returns 0x00
T2F8C 000:444.419 JLINK_ReadReg(R0)
T2F8C 000:444.422 - 0.005ms returns 0x00000001
T2F8C 000:444.427 JLINK_HasError()
T2F8C 000:444.431 JLINK_WriteReg(R0, 0x08000000)
T2F8C 000:444.434 - 0.005ms returns 0
T2F8C 000:444.438 JLINK_WriteReg(R1, 0x00000800)
T2F8C 000:444.442 - 0.005ms returns 0
T2F8C 000:444.446 JLINK_WriteReg(R2, 0x000000FF)
T2F8C 000:444.449 - 0.004ms returns 0
T2F8C 000:444.453 JLINK_WriteReg(R3, 0x00000000)
T2F8C 000:444.456 - 0.004ms returns 0
T2F8C 000:444.460 JLINK_WriteReg(R4, 0x00000000)
T2F8C 000:444.463 - 0.004ms returns 0
T2F8C 000:444.467 JLINK_WriteReg(R5, 0x00000000)
T2F8C 000:444.470 - 0.004ms returns 0
T2F8C 000:444.474 JLINK_WriteReg(R6, 0x00000000)
T2F8C 000:444.478 - 0.005ms returns 0
T2F8C 000:444.482 JLINK_WriteReg(R7, 0x00000000)
T2F8C 000:444.485 - 0.004ms returns 0
T2F8C 000:444.488 JLINK_WriteReg(R8, 0x00000000)
T2F8C 000:444.492 - 0.004ms returns 0
T2F8C 000:444.495 JLINK_WriteReg(R9, 0x200002B4)
T2F8C 000:444.499 - 0.004ms returns 0
T2F8C 000:444.502 JLINK_WriteReg(R10, 0x00000000)
T2F8C 000:444.506 - 0.004ms returns 0
T2F8C 000:444.510 JLINK_WriteReg(R11, 0x00000000)
T2F8C 000:444.513 - 0.004ms returns 0
T2F8C 000:444.517 JLINK_WriteReg(R12, 0x00000000)
T2F8C 000:444.520 - 0.004ms returns 0
T2F8C 000:444.524 JLINK_WriteReg(R13 (SP), 0x20001000)
T2F8C 000:444.527 - 0.005ms returns 0
T2F8C 000:444.531 JLINK_WriteReg(R14, 0x20000001)
T2F8C 000:444.535 - 0.005ms returns 0
T2F8C 000:444.539 JLINK_WriteReg(R15 (PC), 0x20000114)
T2F8C 000:444.542 - 0.005ms returns 0
T2F8C 000:444.546 JLINK_WriteReg(XPSR, 0x01000000)
T2F8C 000:444.549 - 0.005ms returns 0
T2F8C 000:444.553 JLINK_WriteReg(MSP, 0x20001000)
T2F8C 000:444.557 - 0.004ms returns 0
T2F8C 000:444.560 JLINK_WriteReg(PSP, 0x20001000)
T2F8C 000:444.564 - 0.004ms returns 0
T2F8C 000:444.567 JLINK_WriteReg(CFBP, 0x00000000)
T2F8C 000:444.571 - 0.005ms returns 0
T2F8C 000:444.575 JLINK_SetBPEx(Addr = 0x20000000, Type = 0xFFFFFFF2)
T2F8C 000:444.579 - 0.005ms returns 0x00000003
T2F8C 000:444.583 JLINK_Go()
T2F8C 000:444.589   CPU_ReadMem(4 bytes @ 0xE0001000)
T2F8C 000:447.253 - 2.679ms
T2F8C 000:447.266 JLINK_IsHalted()
T2F8C 000:447.737 - 0.475ms returns FALSE
T2F8C 000:447.745 JLINK_HasError()
T2F8C 000:462.447 JLINK_IsHalted()
T2F8C 000:464.828   CPU_ReadMem(2 bytes @ 0x20000000)
T2F8C 000:465.301 - 2.859ms returns TRUE
T2F8C 000:465.356 JLINK_ReadReg(R15 (PC))
T2F8C 000:465.365 - 0.010ms returns 0x20000000
T2F8C 000:465.370 JLINK_ClrBPEx(BPHandle = 0x00000003)
T2F8C 000:465.375 - 0.006ms returns 0x00
T2F8C 000:465.379 JLINK_ReadReg(R0)
T2F8C 000:465.383 - 0.005ms returns 0x00000000
T2F8C 000:468.488 JLINK_HasError()
T2F8C 000:468.506 JLINK_WriteReg(R0, 0x08000800)
T2F8C 000:468.513 - 0.009ms returns 0
T2F8C 000:468.518 JLINK_WriteReg(R1, 0x00000800)
T2F8C 000:468.522 - 0.006ms returns 0
T2F8C 000:468.527 JLINK_WriteReg(R2, 0x000000FF)
T2F8C 000:468.530 - 0.005ms returns 0
T2F8C 000:468.534 JLINK_WriteReg(R3, 0x00000000)
T2F8C 000:468.538 - 0.005ms returns 0
T2F8C 000:468.542 JLINK_WriteReg(R4, 0x00000000)
T2F8C 000:468.545 - 0.005ms returns 0
T2F8C 000:468.549 JLINK_WriteReg(R5, 0x00000000)
T2F8C 000:468.553 - 0.005ms returns 0
T2F8C 000:468.557 JLINK_WriteReg(R6, 0x00000000)
T2F8C 000:468.560 - 0.005ms returns 0
T2F8C 000:468.564 JLINK_WriteReg(R7, 0x00000000)
T2F8C 000:468.568 - 0.005ms returns 0
T2F8C 000:468.572 JLINK_WriteReg(R8, 0x00000000)
T2F8C 000:468.576 - 0.005ms returns 0
T2F8C 000:468.580 JLINK_WriteReg(R9, 0x200002B4)
T2F8C 000:468.583 - 0.005ms returns 0
T2F8C 000:468.588 JLINK_WriteReg(R10, 0x00000000)
T2F8C 000:468.591 - 0.005ms returns 0
T2F8C 000:468.595 JLINK_WriteReg(R11, 0x00000000)
T2F8C 000:468.599 - 0.005ms returns 0
T2F8C 000:468.603 JLINK_WriteReg(R12, 0x00000000)
T2F8C 000:468.613 - 0.014ms returns 0
T2F8C 000:468.620 JLINK_WriteReg(R13 (SP), 0x20001000)
T2F8C 000:468.624 - 0.006ms returns 0
T2F8C 000:468.628 JLINK_WriteReg(R14, 0x20000001)
T2F8C 000:468.632 - 0.005ms returns 0
T2F8C 000:468.636 JLINK_WriteReg(R15 (PC), 0x20000204)
T2F8C 000:468.640 - 0.005ms returns 0
T2F8C 000:468.644 JLINK_WriteReg(XPSR, 0x01000000)
T2F8C 000:468.647 - 0.005ms returns 0
T2F8C 000:468.651 JLINK_WriteReg(MSP, 0x20001000)
T2F8C 000:468.655 - 0.005ms returns 0
T2F8C 000:468.659 JLINK_WriteReg(PSP, 0x20001000)
T2F8C 000:468.662 - 0.005ms returns 0
T2F8C 000:468.666 JLINK_WriteReg(CFBP, 0x00000000)
T2F8C 000:468.670 - 0.005ms returns 0
T2F8C 000:468.674 JLINK_SetBPEx(Addr = 0x20000000, Type = 0xFFFFFFF2)
T2F8C 000:468.679 - 0.006ms returns 0x00000004
T2F8C 000:468.684 JLINK_Go()
T2F8C 000:468.695   CPU_ReadMem(4 bytes @ 0xE0001000)
T2F8C 000:471.641 - 2.970ms
T2F8C 000:471.659 JLINK_IsHalted()
T2F8C 000:473.948   CPU_ReadMem(2 bytes @ 0x20000000)
T2F8C 000:474.423 - 2.767ms returns TRUE
T2F8C 000:474.432 JLINK_ReadReg(R15 (PC))
T2F8C 000:474.438 - 0.007ms returns 0x20000000
T2F8C 000:474.442 JLINK_ClrBPEx(BPHandle = 0x00000004)
T2F8C 000:474.446 - 0.006ms returns 0x00
T2F8C 000:474.451 JLINK_ReadReg(R0)
T2F8C 000:474.454 - 0.005ms returns 0x00000001
T2F8C 000:474.459 JLINK_HasError()
T2F8C 000:474.463 JLINK_WriteReg(R0, 0x08000800)
T2F8C 000:474.467 - 0.005ms returns 0
T2F8C 000:474.471 JLINK_WriteReg(R1, 0x00000800)
T2F8C 000:474.474 - 0.005ms returns 0
T2F8C 000:474.478 JLINK_WriteReg(R2, 0x000000FF)
T2F8C 000:474.481 - 0.004ms returns 0
T2F8C 000:474.485 JLINK_WriteReg(R3, 0x00000000)
T2F8C 000:474.489 - 0.004ms returns 0
T2F8C 000:474.492 JLINK_WriteReg(R4, 0x00000000)
T2F8C 000:474.496 - 0.004ms returns 0
T2F8C 000:474.499 JLINK_WriteReg(R5, 0x00000000)
T2F8C 000:474.503 - 0.004ms returns 0
T2F8C 000:474.506 JLINK_WriteReg(R6, 0x00000000)
T2F8C 000:474.510 - 0.005ms returns 0
T2F8C 000:474.514 JLINK_WriteReg(R7, 0x00000000)
T2F8C 000:474.517 - 0.004ms returns 0
T2F8C 000:474.521 JLINK_WriteReg(R8, 0x00000000)
T2F8C 000:474.524 - 0.005ms returns 0
T2F8C 000:474.528 JLINK_WriteReg(R9, 0x200002B4)
T2F8C 000:474.531 - 0.004ms returns 0
T2F8C 000:474.535 JLINK_WriteReg(R10, 0x00000000)
T2F8C 000:474.538 - 0.005ms returns 0
T2F8C 000:474.542 JLINK_WriteReg(R11, 0x00000000)
T2F8C 000:474.546 - 0.004ms returns 0
T2F8C 000:474.549 JLINK_WriteReg(R12, 0x00000000)
T2F8C 000:474.553 - 0.005ms returns 0
T2F8C 000:474.556 JLINK_WriteReg(R13 (SP), 0x20001000)
T2F8C 000:474.560 - 0.005ms returns 0
T2F8C 000:474.564 JLINK_WriteReg(R14, 0x20000001)
T2F8C 000:474.567 - 0.004ms returns 0
T2F8C 000:474.571 JLINK_WriteReg(R15 (PC), 0x20000114)
T2F8C 000:474.574 - 0.004ms returns 0
T2F8C 000:474.578 JLINK_WriteReg(XPSR, 0x01000000)
T2F8C 000:474.581 - 0.005ms returns 0
T2F8C 000:474.585 JLINK_WriteReg(MSP, 0x20001000)
T2F8C 000:474.588 - 0.004ms returns 0
T2F8C 000:474.592 JLINK_WriteReg(PSP, 0x20001000)
T2F8C 000:474.596 - 0.005ms returns 0
T2F8C 000:474.599 JLINK_WriteReg(CFBP, 0x00000000)
T2F8C 000:474.603 - 0.005ms returns 0
T2F8C 000:474.607 JLINK_SetBPEx(Addr = 0x20000000, Type = 0xFFFFFFF2)
T2F8C 000:474.611 - 0.005ms returns 0x00000005
T2F8C 000:474.615 JLINK_Go()
T2F8C 000:474.621   CPU_ReadMem(4 bytes @ 0xE0001000)
T2F8C 000:477.301 - 2.690ms
T2F8C 000:477.309 JLINK_IsHalted()
T2F8C 000:477.764 - 0.458ms returns FALSE
T2F8C 000:477.770 JLINK_HasError()
T2F8C 000:479.465 JLINK_IsHalted()
T2F8C 000:479.960 - 0.499ms returns FALSE
T2F8C 000:479.968 JLINK_HasError()
T2F8C 000:481.463 JLINK_IsHalted()
T2F8C 000:481.961 - 0.502ms returns FALSE
T2F8C 000:481.970 JLINK_HasError()
T2F8C 000:483.971 JLINK_IsHalted()
T2F8C 000:486.334   CPU_ReadMem(2 bytes @ 0x20000000)
T2F8C 000:486.825 - 2.857ms returns TRUE
T2F8C 000:486.832 JLINK_ReadReg(R15 (PC))
T2F8C 000:486.838 - 0.007ms returns 0x20000000
T2F8C 000:486.843 JLINK_ClrBPEx(BPHandle = 0x00000005)
T2F8C 000:486.846 - 0.005ms returns 0x00
T2F8C 000:486.851 JLINK_ReadReg(R0)
T2F8C 000:486.858 - 0.010ms returns 0x00000000
T2F8C 000:487.283 JLINK_HasError()
T2F8C 000:487.293 JLINK_WriteReg(R0, 0x08001000)
T2F8C 000:487.299 - 0.007ms returns 0
T2F8C 000:487.303 JLINK_WriteReg(R1, 0x00000800)
T2F8C 000:487.306 - 0.005ms returns 0
T2F8C 000:487.310 JLINK_WriteReg(R2, 0x000000FF)
T2F8C 000:487.314 - 0.004ms returns 0
T2F8C 000:487.317 JLINK_WriteReg(R3, 0x00000000)
T2F8C 000:487.321 - 0.005ms returns 0
T2F8C 000:487.325 JLINK_WriteReg(R4, 0x00000000)
T2F8C 000:487.328 - 0.004ms returns 0
T2F8C 000:487.332 JLINK_WriteReg(R5, 0x00000000)
T2F8C 000:487.336 - 0.005ms returns 0
T2F8C 000:487.339 JLINK_WriteReg(R6, 0x00000000)
T2F8C 000:487.343 - 0.004ms returns 0
T2F8C 000:487.346 JLINK_WriteReg(R7, 0x00000000)
T2F8C 000:487.349 - 0.004ms returns 0
T2F8C 000:487.353 JLINK_WriteReg(R8, 0x00000000)
T2F8C 000:487.357 - 0.005ms returns 0
T2F8C 000:487.360 JLINK_WriteReg(R9, 0x200002B4)
T2F8C 000:487.364 - 0.004ms returns 0
T2F8C 000:487.367 JLINK_WriteReg(R10, 0x00000000)
T2F8C 000:487.371 - 0.004ms returns 0
T2F8C 000:487.374 JLINK_WriteReg(R11, 0x00000000)
T2F8C 000:487.378 - 0.004ms returns 0
T2F8C 000:487.382 JLINK_WriteReg(R12, 0x00000000)
T2F8C 000:487.385 - 0.004ms returns 0
T2F8C 000:487.389 JLINK_WriteReg(R13 (SP), 0x20001000)
T2F8C 000:487.392 - 0.005ms returns 0
T2F8C 000:487.396 JLINK_WriteReg(R14, 0x20000001)
T2F8C 000:487.400 - 0.004ms returns 0
T2F8C 000:487.403 JLINK_WriteReg(R15 (PC), 0x20000204)
T2F8C 000:487.407 - 0.005ms returns 0
T2F8C 000:487.410 JLINK_WriteReg(XPSR, 0x01000000)
T2F8C 000:487.414 - 0.005ms returns 0
T2F8C 000:487.418 JLINK_WriteReg(MSP, 0x20001000)
T2F8C 000:487.421 - 0.005ms returns 0
T2F8C 000:487.425 JLINK_WriteReg(PSP, 0x20001000)
T2F8C 000:487.429 - 0.004ms returns 0
T2F8C 000:487.432 JLINK_WriteReg(CFBP, 0x00000000)
T2F8C 000:487.436 - 0.004ms returns 0
T2F8C 000:487.439 JLINK_SetBPEx(Addr = 0x20000000, Type = 0xFFFFFFF2)
T2F8C 000:487.444 - 0.006ms returns 0x00000006
T2F8C 000:487.448 JLINK_Go()
T2F8C 000:487.456   CPU_ReadMem(4 bytes @ 0xE0001000)
T2F8C 000:490.252 - 2.811ms
T2F8C 000:490.270 JLINK_IsHalted()
T2F8C 000:492.546   CPU_ReadMem(2 bytes @ 0x20000000)
T2F8C 000:493.017 - 2.750ms returns TRUE
T2F8C 000:493.027 JLINK_ReadReg(R15 (PC))
T2F8C 000:493.033 - 0.007ms returns 0x20000000
T2F8C 000:493.038 JLINK_ClrBPEx(BPHandle = 0x00000006)
T2F8C 000:493.042 - 0.005ms returns 0x00
T2F8C 000:493.082 JLINK_ReadReg(R0)
T2F8C 000:493.092 - 0.012ms returns 0x00000001
T2F8C 000:493.098 JLINK_HasError()
T2F8C 000:493.102 JLINK_WriteReg(R0, 0x08001000)
T2F8C 000:493.106 - 0.006ms returns 0
T2F8C 000:493.111 JLINK_WriteReg(R1, 0x00000800)
T2F8C 000:493.115 - 0.005ms returns 0
T2F8C 000:493.119 JLINK_WriteReg(R2, 0x000000FF)
T2F8C 000:493.122 - 0.005ms returns 0
T2F8C 000:493.126 JLINK_WriteReg(R3, 0x00000000)
T2F8C 000:493.130 - 0.005ms returns 0
T2F8C 000:493.134 JLINK_WriteReg(R4, 0x00000000)
T2F8C 000:493.137 - 0.005ms returns 0
T2F8C 000:493.141 JLINK_WriteReg(R5, 0x00000000)
T2F8C 000:493.145 - 0.005ms returns 0
T2F8C 000:493.149 JLINK_WriteReg(R6, 0x00000000)
T2F8C 000:493.152 - 0.005ms returns 0
T2F8C 000:493.156 JLINK_WriteReg(R7, 0x00000000)
T2F8C 000:493.160 - 0.005ms returns 0
T2F8C 000:493.164 JLINK_WriteReg(R8, 0x00000000)
T2F8C 000:493.167 - 0.005ms returns 0
T2F8C 000:493.171 JLINK_WriteReg(R9, 0x200002B4)
T2F8C 000:493.175 - 0.005ms returns 0
T2F8C 000:493.179 JLINK_WriteReg(R10, 0x00000000)
T2F8C 000:493.183 - 0.005ms returns 0
T2F8C 000:493.187 JLINK_WriteReg(R11, 0x00000000)
T2F8C 000:493.190 - 0.005ms returns 0
T2F8C 000:493.194 JLINK_WriteReg(R12, 0x00000000)
T2F8C 000:493.198 - 0.005ms returns 0
T2F8C 000:493.202 JLINK_WriteReg(R13 (SP), 0x20001000)
T2F8C 000:493.206 - 0.005ms returns 0
T2F8C 000:493.210 JLINK_WriteReg(R14, 0x20000001)
T2F8C 000:493.213 - 0.005ms returns 0
T2F8C 000:493.217 JLINK_WriteReg(R15 (PC), 0x20000114)
T2F8C 000:493.221 - 0.005ms returns 0
T2F8C 000:493.225 JLINK_WriteReg(XPSR, 0x01000000)
T2F8C 000:493.229 - 0.005ms returns 0
T2F8C 000:493.236 JLINK_WriteReg(MSP, 0x20001000)
T2F8C 000:493.241 - 0.006ms returns 0
T2F8C 000:493.245 JLINK_WriteReg(PSP, 0x20001000)
T2F8C 000:493.249 - 0.005ms returns 0
T2F8C 000:493.253 JLINK_WriteReg(CFBP, 0x00000000)
T2F8C 000:493.257 - 0.005ms returns 0
T2F8C 000:493.261 JLINK_SetBPEx(Addr = 0x20000000, Type = 0xFFFFFFF2)
T2F8C 000:493.265 - 0.005ms returns 0x00000007
T2F8C 000:493.269 JLINK_Go()
T2F8C 000:493.277   CPU_ReadMem(4 bytes @ 0xE0001000)
T2F8C 000:495.976 - 2.714ms
T2F8C 000:495.987 JLINK_IsHalted()
T2F8C 000:496.433 - 0.448ms returns FALSE
T2F8C 000:496.439 JLINK_HasError()
T2F8C 000:499.480 JLINK_IsHalted()
T2F8C 000:499.932 - 0.457ms returns FALSE
T2F8C 000:499.941 JLINK_HasError()
T2F8C 000:501.479 JLINK_IsHalted()
T2F8C 000:503.761   CPU_ReadMem(2 bytes @ 0x20000000)
T2F8C 000:504.255 - 2.779ms returns TRUE
T2F8C 000:504.263 JLINK_ReadReg(R15 (PC))
T2F8C 000:504.269 - 0.007ms returns 0x20000000
T2F8C 000:504.273 JLINK_ClrBPEx(BPHandle = 0x00000007)
T2F8C 000:504.277 - 0.005ms returns 0x00
T2F8C 000:504.281 JLINK_ReadReg(R0)
T2F8C 000:504.285 - 0.005ms returns 0x00000000
T2F8C 000:504.795 JLINK_HasError()
T2F8C 000:504.808 JLINK_WriteReg(R0, 0x08001800)
T2F8C 000:504.813 - 0.007ms returns 0
T2F8C 000:504.818 JLINK_WriteReg(R1, 0x00000800)
T2F8C 000:504.821 - 0.005ms returns 0
T2F8C 000:504.825 JLINK_WriteReg(R2, 0x000000FF)
T2F8C 000:504.829 - 0.005ms returns 0
T2F8C 000:504.833 JLINK_WriteReg(R3, 0x00000000)
T2F8C 000:504.836 - 0.005ms returns 0
T2F8C 000:504.840 JLINK_WriteReg(R4, 0x00000000)
T2F8C 000:504.843 - 0.005ms returns 0
T2F8C 000:504.847 JLINK_WriteReg(R5, 0x00000000)
T2F8C 000:504.850 - 0.004ms returns 0
T2F8C 000:504.854 JLINK_WriteReg(R6, 0x00000000)
T2F8C 000:504.857 - 0.004ms returns 0
T2F8C 000:504.861 JLINK_WriteReg(R7, 0x00000000)
T2F8C 000:504.864 - 0.005ms returns 0
T2F8C 000:504.868 JLINK_WriteReg(R8, 0x00000000)
T2F8C 000:504.872 - 0.005ms returns 0
T2F8C 000:504.875 JLINK_WriteReg(R9, 0x200002B4)
T2F8C 000:504.879 - 0.004ms returns 0
T2F8C 000:504.882 JLINK_WriteReg(R10, 0x00000000)
T2F8C 000:504.886 - 0.005ms returns 0
T2F8C 000:504.890 JLINK_WriteReg(R11, 0x00000000)
T2F8C 000:504.893 - 0.004ms returns 0
T2F8C 000:504.897 JLINK_WriteReg(R12, 0x00000000)
T2F8C 000:504.900 - 0.005ms returns 0
T2F8C 000:504.904 JLINK_WriteReg(R13 (SP), 0x20001000)
T2F8C 000:504.908 - 0.005ms returns 0
T2F8C 000:504.912 JLINK_WriteReg(R14, 0x20000001)
T2F8C 000:504.915 - 0.005ms returns 0
T2F8C 000:504.919 JLINK_WriteReg(R15 (PC), 0x20000204)
T2F8C 000:504.922 - 0.005ms returns 0
T2F8C 000:504.926 JLINK_WriteReg(XPSR, 0x01000000)
T2F8C 000:504.929 - 0.004ms returns 0
T2F8C 000:504.933 JLINK_WriteReg(MSP, 0x20001000)
T2F8C 000:504.936 - 0.004ms returns 0
T2F8C 000:504.940 JLINK_WriteReg(PSP, 0x20001000)
T2F8C 000:504.943 - 0.004ms returns 0
T2F8C 000:504.947 JLINK_WriteReg(CFBP, 0x00000000)
T2F8C 000:504.951 - 0.004ms returns 0
T2F8C 000:504.955 JLINK_SetBPEx(Addr = 0x20000000, Type = 0xFFFFFFF2)
T2F8C 000:504.959 - 0.006ms returns 0x00000008
T2F8C 000:504.963 JLINK_Go()
T2F8C 000:504.971   CPU_ReadMem(4 bytes @ 0xE0001000)
T2F8C 000:507.568 - 2.611ms
T2F8C 000:507.578 JLINK_IsHalted()
T2F8C 000:509.851   CPU_ReadMem(2 bytes @ 0x20000000)
T2F8C 000:510.345 - 2.770ms returns TRUE
T2F8C 000:510.352 JLINK_ReadReg(R15 (PC))
T2F8C 000:510.357 - 0.006ms returns 0x20000000
T2F8C 000:510.360 JLINK_ClrBPEx(BPHandle = 0x00000008)
T2F8C 000:510.364 - 0.005ms returns 0x00
T2F8C 000:510.368 JLINK_ReadReg(R0)
T2F8C 000:510.371 - 0.004ms returns 0x00000001
T2F8C 000:510.375 JLINK_HasError()
T2F8C 000:510.379 JLINK_WriteReg(R0, 0x08001800)
T2F8C 000:510.383 - 0.005ms returns 0
T2F8C 000:510.387 JLINK_WriteReg(R1, 0x00000800)
T2F8C 000:510.390 - 0.004ms returns 0
T2F8C 000:510.394 JLINK_WriteReg(R2, 0x000000FF)
T2F8C 000:510.397 - 0.004ms returns 0
T2F8C 000:510.401 JLINK_WriteReg(R3, 0x00000000)
T2F8C 000:510.404 - 0.004ms returns 0
T2F8C 000:510.408 JLINK_WriteReg(R4, 0x00000000)
T2F8C 000:510.411 - 0.004ms returns 0
T2F8C 000:510.466 JLINK_WriteReg(R5, 0x00000000)
T2F8C 000:510.473 - 0.008ms returns 0
T2F8C 000:510.477 JLINK_WriteReg(R6, 0x00000000)
T2F8C 000:510.480 - 0.005ms returns 0
T2F8C 000:510.484 JLINK_WriteReg(R7, 0x00000000)
T2F8C 000:510.487 - 0.004ms returns 0
T2F8C 000:510.491 JLINK_WriteReg(R8, 0x00000000)
T2F8C 000:510.494 - 0.005ms returns 0
T2F8C 000:510.498 JLINK_WriteReg(R9, 0x200002B4)
T2F8C 000:510.501 - 0.005ms returns 0
T2F8C 000:510.505 JLINK_WriteReg(R10, 0x00000000)
T2F8C 000:510.508 - 0.005ms returns 0
T2F8C 000:510.512 JLINK_WriteReg(R11, 0x00000000)
T2F8C 000:510.515 - 0.004ms returns 0
T2F8C 000:510.519 JLINK_WriteReg(R12, 0x00000000)
T2F8C 000:510.522 - 0.004ms returns 0
T2F8C 000:510.526 JLINK_WriteReg(R13 (SP), 0x20001000)
T2F8C 000:510.530 - 0.005ms returns 0
T2F8C 000:510.534 JLINK_WriteReg(R14, 0x20000001)
T2F8C 000:510.537 - 0.004ms returns 0
T2F8C 000:510.541 JLINK_WriteReg(R15 (PC), 0x20000114)
T2F8C 000:510.544 - 0.004ms returns 0
T2F8C 000:510.548 JLINK_WriteReg(XPSR, 0x01000000)
T2F8C 000:510.551 - 0.005ms returns 0
T2F8C 000:510.555 JLINK_WriteReg(MSP, 0x20001000)
T2F8C 000:510.558 - 0.005ms returns 0
T2F8C 000:510.562 JLINK_WriteReg(PSP, 0x20001000)
T2F8C 000:510.565 - 0.004ms returns 0
T2F8C 000:510.569 JLINK_WriteReg(CFBP, 0x00000000)
T2F8C 000:510.573 - 0.005ms returns 0
T2F8C 000:510.577 JLINK_SetBPEx(Addr = 0x20000000, Type = 0xFFFFFFF2)
T2F8C 000:510.581 - 0.005ms returns 0x00000009
T2F8C 000:510.584 JLINK_Go()
T2F8C 000:510.591   CPU_ReadMem(4 bytes @ 0xE0001000)
T2F8C 000:513.247 - 2.667ms
T2F8C 000:513.255 JLINK_IsHalted()
T2F8C 000:513.749 - 0.498ms returns FALSE
T2F8C 000:513.758 JLINK_HasError()
T2F8C 000:518.502 JLINK_IsHalted()
T2F8C 000:520.857   CPU_ReadMem(2 bytes @ 0x20000000)
T2F8C 000:521.352 - 2.855ms returns TRUE
T2F8C 000:521.362 JLINK_ReadReg(R15 (PC))
T2F8C 000:521.369 - 0.008ms returns 0x20000000
T2F8C 000:521.373 JLINK_ClrBPEx(BPHandle = 0x00000009)
T2F8C 000:521.377 - 0.005ms returns 0x00
T2F8C 000:521.381 JLINK_ReadReg(R0)
T2F8C 000:521.385 - 0.005ms returns 0x00000000
T2F8C 000:521.674 JLINK_HasError()
T2F8C 000:521.684 JLINK_WriteReg(R0, 0x00000001)
T2F8C 000:521.690 - 0.007ms returns 0
T2F8C 000:521.695 JLINK_WriteReg(R1, 0x00000800)
T2F8C 000:521.698 - 0.005ms returns 0
T2F8C 000:521.702 JLINK_WriteReg(R2, 0x000000FF)
T2F8C 000:521.706 - 0.005ms returns 0
T2F8C 000:521.710 JLINK_WriteReg(R3, 0x00000000)
T2F8C 000:521.713 - 0.005ms returns 0
T2F8C 000:521.717 JLINK_WriteReg(R4, 0x00000000)
T2F8C 000:521.720 - 0.004ms returns 0
T2F8C 000:521.724 JLINK_WriteReg(R5, 0x00000000)
T2F8C 000:521.727 - 0.005ms returns 0
T2F8C 000:521.731 JLINK_WriteReg(R6, 0x00000000)
T2F8C 000:521.735 - 0.005ms returns 0
T2F8C 000:521.738 JLINK_WriteReg(R7, 0x00000000)
T2F8C 000:521.742 - 0.005ms returns 0
T2F8C 000:521.745 JLINK_WriteReg(R8, 0x00000000)
T2F8C 000:521.749 - 0.005ms returns 0
T2F8C 000:521.753 JLINK_WriteReg(R9, 0x200002B4)
T2F8C 000:521.756 - 0.004ms returns 0
T2F8C 000:521.760 JLINK_WriteReg(R10, 0x00000000)
T2F8C 000:521.763 - 0.004ms returns 0
T2F8C 000:521.767 JLINK_WriteReg(R11, 0x00000000)
T2F8C 000:521.770 - 0.004ms returns 0
T2F8C 000:521.774 JLINK_WriteReg(R12, 0x00000000)
T2F8C 000:521.777 - 0.004ms returns 0
T2F8C 000:521.781 JLINK_WriteReg(R13 (SP), 0x20001000)
T2F8C 000:521.785 - 0.005ms returns 0
T2F8C 000:521.788 JLINK_WriteReg(R14, 0x20000001)
T2F8C 000:521.792 - 0.004ms returns 0
T2F8C 000:521.795 JLINK_WriteReg(R15 (PC), 0x20000084)
T2F8C 000:521.799 - 0.005ms returns 0
T2F8C 000:521.803 JLINK_WriteReg(XPSR, 0x01000000)
T2F8C 000:521.806 - 0.004ms returns 0
T2F8C 000:521.810 JLINK_WriteReg(MSP, 0x20001000)
T2F8C 000:521.813 - 0.004ms returns 0
T2F8C 000:521.817 JLINK_WriteReg(PSP, 0x20001000)
T2F8C 000:521.820 - 0.004ms returns 0
T2F8C 000:521.824 JLINK_WriteReg(CFBP, 0x00000000)
T2F8C 000:521.827 - 0.005ms returns 0
T2F8C 000:521.831 JLINK_SetBPEx(Addr = 0x20000000, Type = 0xFFFFFFF2)
T2F8C 000:521.836 - 0.006ms returns 0x0000000A
T2F8C 000:521.840 JLINK_Go()
T2F8C 000:521.853   CPU_ReadMem(4 bytes @ 0xE0001000)
T2F8C 000:524.564 - 2.730ms
T2F8C 000:524.574 JLINK_IsHalted()
T2F8C 000:526.848   CPU_ReadMem(2 bytes @ 0x20000000)
T2F8C 000:527.346 - 2.775ms returns TRUE
T2F8C 000:527.353 JLINK_ReadReg(R15 (PC))
T2F8C 000:527.358 - 0.006ms returns 0x20000000
T2F8C 000:527.362 JLINK_ClrBPEx(BPHandle = 0x0000000A)
T2F8C 000:527.367 - 0.006ms returns 0x00
T2F8C 000:527.371 JLINK_ReadReg(R0)
T2F8C 000:527.374 - 0.005ms returns 0x00000000
T2F8C 000:591.903 JLINK_WriteMem(0x20000000, 0x2B8 Bytes, ...)
T2F8C 000:591.920   Data:  00 BE 0A E0 0D 78 2D 06 68 40 08 24 40 00 00 D3 ...
T2F8C 000:591.941   CPU_WriteMem(696 bytes @ 0x20000000)
T2F8C 000:594.798 - 2.903ms returns 0x2B8
T2F8C 000:594.841 JLINK_HasError()
T2F8C 000:594.848 JLINK_WriteReg(R0, 0x08000000)
T2F8C 000:594.855 - 0.008ms returns 0
T2F8C 000:594.859 JLINK_WriteReg(R1, 0x00B71B00)
T2F8C 000:594.863 - 0.005ms returns 0
T2F8C 000:594.867 JLINK_WriteReg(R2, 0x00000002)
T2F8C 000:594.870 - 0.004ms returns 0
T2F8C 000:594.874 JLINK_WriteReg(R3, 0x00000000)
T2F8C 000:594.877 - 0.004ms returns 0
T2F8C 000:594.881 JLINK_WriteReg(R4, 0x00000000)
T2F8C 000:594.884 - 0.004ms returns 0
T2F8C 000:594.888 JLINK_WriteReg(R5, 0x00000000)
T2F8C 000:594.891 - 0.004ms returns 0
T2F8C 000:594.895 JLINK_WriteReg(R6, 0x00000000)
T2F8C 000:594.898 - 0.004ms returns 0
T2F8C 000:594.902 JLINK_WriteReg(R7, 0x00000000)
T2F8C 000:594.905 - 0.004ms returns 0
T2F8C 000:594.909 JLINK_WriteReg(R8, 0x00000000)
T2F8C 000:594.912 - 0.004ms returns 0
T2F8C 000:594.916 JLINK_WriteReg(R9, 0x200002B4)
T2F8C 000:594.919 - 0.004ms returns 0
T2F8C 000:594.923 JLINK_WriteReg(R10, 0x00000000)
T2F8C 000:594.926 - 0.004ms returns 0
T2F8C 000:594.930 JLINK_WriteReg(R11, 0x00000000)
T2F8C 000:594.933 - 0.004ms returns 0
T2F8C 000:594.937 JLINK_WriteReg(R12, 0x00000000)
T2F8C 000:594.940 - 0.004ms returns 0
T2F8C 000:594.944 JLINK_WriteReg(R13 (SP), 0x20001000)
T2F8C 000:594.948 - 0.005ms returns 0
T2F8C 000:594.952 JLINK_WriteReg(R14, 0x20000001)
T2F8C 000:594.955 - 0.005ms returns 0
T2F8C 000:594.959 JLINK_WriteReg(R15 (PC), 0x20000020)
T2F8C 000:594.963 - 0.005ms returns 0
T2F8C 000:594.966 JLINK_WriteReg(XPSR, 0x01000000)
T2F8C 000:594.970 - 0.005ms returns 0
T2F8C 000:594.974 JLINK_WriteReg(MSP, 0x20001000)
T2F8C 000:594.977 - 0.004ms returns 0
T2F8C 000:594.981 JLINK_WriteReg(PSP, 0x20001000)
T2F8C 000:594.984 - 0.004ms returns 0
T2F8C 000:594.988 JLINK_WriteReg(CFBP, 0x00000000)
T2F8C 000:594.991 - 0.004ms returns 0
T2F8C 000:594.995 JLINK_SetBPEx(Addr = 0x20000000, Type = 0xFFFFFFF2)
T2F8C 000:595.003   CPU_ReadMem(4 bytes @ 0x20000000)
T2F8C 000:595.532   CPU_WriteMem(4 bytes @ 0x20000000)
T2F8C 000:596.008   CPU_ReadMem(4 bytes @ 0x20000000)
T2F8C 000:596.478   CPU_WriteMem(4 bytes @ 0x20000000)
T2F8C 000:596.934   CPU_ReadMem(2 bytes @ 0x20000000)
T2F8C 000:597.525 - 2.540ms returns 0x0000000B
T2F8C 000:597.541 JLINK_Go()
T2F8C 000:597.549   CPU_WriteMem(2 bytes @ 0x20000000)
T2F8C 000:598.066   CPU_ReadMem(4 bytes @ 0xE0001000)
T2F8C 000:600.801 - 3.270ms
T2F8C 000:600.817 JLINK_IsHalted()
T2F8C 000:603.015   CPU_ReadMem(2 bytes @ 0x20000000)
T2F8C 000:603.439 - 2.632ms returns TRUE
T2F8C 000:603.455 JLINK_ReadReg(R15 (PC))
T2F8C 000:603.461 - 0.008ms returns 0x20000000
T2F8C 000:603.466 JLINK_ClrBPEx(BPHandle = 0x0000000B)
T2F8C 000:603.469 - 0.005ms returns 0x00
T2F8C 000:603.473 JLINK_ReadReg(R0)
T2F8C 000:603.477 - 0.005ms returns 0x00000000
T2F8C 000:603.787 JLINK_WriteMem(0x200002B8, 0x100 Bytes, ...)
T2F8C 000:603.796   Data:  30 05 00 20 45 01 00 08 B1 13 00 08 A9 13 00 08 ...
T2F8C 000:603.809   CPU_WriteMem(256 bytes @ 0x200002B8)
T2F8C 000:605.395 - 1.614ms returns 0x100
T2F8C 000:605.407 JLINK_HasError()
T2F8C 000:605.412 JLINK_WriteReg(R0, 0x08000000)
T2F8C 000:605.418 - 0.008ms returns 0
T2F8C 000:605.422 JLINK_WriteReg(R1, 0x00000100)
T2F8C 000:605.427 - 0.006ms returns 0
T2F8C 000:605.431 JLINK_WriteReg(R2, 0x200002B8)
T2F8C 000:605.434 - 0.005ms returns 0
T2F8C 000:605.444 JLINK_WriteReg(R3, 0x00000000)
T2F8C 000:605.450 - 0.007ms returns 0
T2F8C 000:605.454 JLINK_WriteReg(R4, 0x00000000)
T2F8C 000:605.457 - 0.005ms returns 0
T2F8C 000:605.462 JLINK_WriteReg(R5, 0x00000000)
T2F8C 000:605.466 - 0.005ms returns 0
T2F8C 000:605.469 JLINK_WriteReg(R6, 0x00000000)
T2F8C 000:605.473 - 0.005ms returns 0
T2F8C 000:605.477 JLINK_WriteReg(R7, 0x00000000)
T2F8C 000:605.480 - 0.005ms returns 0
T2F8C 000:605.484 JLINK_WriteReg(R8, 0x00000000)
T2F8C 000:605.488 - 0.005ms returns 0
T2F8C 000:605.492 JLINK_WriteReg(R9, 0x200002B4)
T2F8C 000:605.496 - 0.005ms returns 0
T2F8C 000:605.499 JLINK_WriteReg(R10, 0x00000000)
T2F8C 000:605.503 - 0.005ms returns 0
T2F8C 000:605.507 JLINK_WriteReg(R11, 0x00000000)
T2F8C 000:605.511 - 0.005ms returns 0
T2F8C 000:605.515 JLINK_WriteReg(R12, 0x00000000)
T2F8C 000:605.518 - 0.005ms returns 0
T2F8C 000:605.522 JLINK_WriteReg(R13 (SP), 0x20001000)
T2F8C 000:605.526 - 0.005ms returns 0
T2F8C 000:605.531 JLINK_WriteReg(R14, 0x20000001)
T2F8C 000:605.535 - 0.005ms returns 0
T2F8C 000:605.539 JLINK_WriteReg(R15 (PC), 0x20000208)
T2F8C 000:605.542 - 0.005ms returns 0
T2F8C 000:605.546 JLINK_WriteReg(XPSR, 0x01000000)
T2F8C 000:605.550 - 0.005ms returns 0
T2F8C 000:605.554 JLINK_WriteReg(MSP, 0x20001000)
T2F8C 000:605.558 - 0.005ms returns 0
T2F8C 000:605.562 JLINK_WriteReg(PSP, 0x20001000)
T2F8C 000:605.565 - 0.005ms returns 0
T2F8C 000:605.569 JLINK_WriteReg(CFBP, 0x00000000)
T2F8C 000:605.573 - 0.005ms returns 0
T2F8C 000:605.578 JLINK_SetBPEx(Addr = 0x20000000, Type = 0xFFFFFFF2)
T2F8C 000:605.582 - 0.006ms returns 0x0000000C
T2F8C 000:605.586 JLINK_Go()
T2F8C 000:605.593   CPU_ReadMem(4 bytes @ 0xE0001000)
T2F8C 000:608.309 - 2.732ms
T2F8C 000:608.323 JLINK_IsHalted()
T2F8C 000:608.787 - 0.467ms returns FALSE
T2F8C 000:608.793 JLINK_HasError()
T2F8C 000:612.578 JLINK_IsHalted()
T2F8C 000:614.919   CPU_ReadMem(2 bytes @ 0x20000000)
T2F8C 000:615.428 - 2.862ms returns TRUE
T2F8C 000:615.447 JLINK_ReadReg(R15 (PC))
T2F8C 000:615.455 - 0.009ms returns 0x20000000
T2F8C 000:615.459 JLINK_ClrBPEx(BPHandle = 0x0000000C)
T2F8C 000:615.463 - 0.005ms returns 0x00
T2F8C 000:615.467 JLINK_ReadReg(R0)
T2F8C 000:615.471 - 0.005ms returns 0x00000000
T2F8C 000:616.905 JLINK_WriteMem(0x200002B8, 0x100 Bytes, ...)
T2F8C 000:616.918   Data:  5F 01 00 08 5F 01 00 08 5F 01 00 08 5F 01 00 08 ...
T2F8C 000:616.932   CPU_WriteMem(256 bytes @ 0x200002B8)
T2F8C 000:618.391 - 1.494ms returns 0x100
T2F8C 000:618.406 JLINK_HasError()
T2F8C 000:618.411 JLINK_WriteReg(R0, 0x08000100)
T2F8C 000:618.417 - 0.007ms returns 0
T2F8C 000:618.421 JLINK_WriteReg(R1, 0x00000100)
T2F8C 000:618.424 - 0.005ms returns 0
T2F8C 000:618.428 JLINK_WriteReg(R2, 0x200002B8)
T2F8C 000:618.431 - 0.004ms returns 0
T2F8C 000:618.435 JLINK_WriteReg(R3, 0x00000000)
T2F8C 000:618.438 - 0.004ms returns 0
T2F8C 000:618.442 JLINK_WriteReg(R4, 0x00000000)
T2F8C 000:618.445 - 0.004ms returns 0
T2F8C 000:618.449 JLINK_WriteReg(R5, 0x00000000)
T2F8C 000:618.452 - 0.004ms returns 0
T2F8C 000:618.456 JLINK_WriteReg(R6, 0x00000000)
T2F8C 000:618.459 - 0.004ms returns 0
T2F8C 000:618.463 JLINK_WriteReg(R7, 0x00000000)
T2F8C 000:618.467 - 0.005ms returns 0
T2F8C 000:618.471 JLINK_WriteReg(R8, 0x00000000)
T2F8C 000:618.474 - 0.005ms returns 0
T2F8C 000:618.478 JLINK_WriteReg(R9, 0x200002B4)
T2F8C 000:618.481 - 0.004ms returns 0
T2F8C 000:618.485 JLINK_WriteReg(R10, 0x00000000)
T2F8C 000:618.488 - 0.005ms returns 0
T2F8C 000:618.492 JLINK_WriteReg(R11, 0x00000000)
T2F8C 000:618.495 - 0.004ms returns 0
T2F8C 000:618.499 JLINK_WriteReg(R12, 0x00000000)
T2F8C 000:618.502 - 0.004ms returns 0
T2F8C 000:618.506 JLINK_WriteReg(R13 (SP), 0x20001000)
T2F8C 000:618.510 - 0.005ms returns 0
T2F8C 000:618.514 JLINK_WriteReg(R14, 0x20000001)
T2F8C 000:618.517 - 0.005ms returns 0
T2F8C 000:618.521 JLINK_WriteReg(R15 (PC), 0x20000208)
T2F8C 000:618.524 - 0.005ms returns 0
T2F8C 000:618.528 JLINK_WriteReg(XPSR, 0x01000000)
T2F8C 000:618.531 - 0.004ms returns 0
T2F8C 000:618.539 JLINK_WriteReg(MSP, 0x20001000)
T2F8C 000:618.544 - 0.007ms returns 0
T2F8C 000:618.548 JLINK_WriteReg(PSP, 0x20001000)
T2F8C 000:618.551 - 0.004ms returns 0
T2F8C 000:618.555 JLINK_WriteReg(CFBP, 0x00000000)
T2F8C 000:618.558 - 0.004ms returns 0
T2F8C 000:618.562 JLINK_SetBPEx(Addr = 0x20000000, Type = 0xFFFFFFF2)
T2F8C 000:618.567 - 0.005ms returns 0x0000000D
T2F8C 000:618.571 JLINK_Go()
T2F8C 000:618.578   CPU_ReadMem(4 bytes @ 0xE0001000)
T2F8C 000:621.389 - 2.825ms
T2F8C 000:621.435 JLINK_IsHalted()
T2F8C 000:621.936 - 0.508ms returns FALSE
T2F8C 000:621.948 JLINK_HasError()
T2F8C 000:624.592 JLINK_IsHalted()
T2F8C 000:626.854   CPU_ReadMem(2 bytes @ 0x20000000)
T2F8C 000:627.394 - 2.806ms returns TRUE
T2F8C 000:627.402 JLINK_ReadReg(R15 (PC))
T2F8C 000:627.408 - 0.007ms returns 0x20000000
T2F8C 000:627.412 JLINK_ClrBPEx(BPHandle = 0x0000000D)
T2F8C 000:627.416 - 0.005ms returns 0x00
T2F8C 000:627.420 JLINK_ReadReg(R0)
T2F8C 000:627.423 - 0.005ms returns 0x00000000
T2F8C 000:627.775 JLINK_WriteMem(0x200002B8, 0x100 Bytes, ...)
T2F8C 000:627.784   Data:  E0 68 40 F0 01 03 94 E8 07 00 98 47 10 34 AC 42 ...
T2F8C 000:627.795   CPU_WriteMem(256 bytes @ 0x200002B8)
T2F8C 000:629.382 - 1.611ms returns 0x100
T2F8C 000:629.391 JLINK_HasError()
T2F8C 000:629.396 JLINK_WriteReg(R0, 0x08000200)
T2F8C 000:629.401 - 0.007ms returns 0
T2F8C 000:629.406 JLINK_WriteReg(R1, 0x00000100)
T2F8C 000:629.409 - 0.005ms returns 0
T2F8C 000:629.413 JLINK_WriteReg(R2, 0x200002B8)
T2F8C 000:629.416 - 0.005ms returns 0
T2F8C 000:629.420 JLINK_WriteReg(R3, 0x00000000)
T2F8C 000:629.423 - 0.005ms returns 0
T2F8C 000:629.427 JLINK_WriteReg(R4, 0x00000000)
T2F8C 000:629.431 - 0.004ms returns 0
T2F8C 000:629.434 JLINK_WriteReg(R5, 0x00000000)
T2F8C 000:629.438 - 0.004ms returns 0
T2F8C 000:629.442 JLINK_WriteReg(R6, 0x00000000)
T2F8C 000:629.445 - 0.005ms returns 0
T2F8C 000:629.449 JLINK_WriteReg(R7, 0x00000000)
T2F8C 000:629.452 - 0.004ms returns 0
T2F8C 000:629.456 JLINK_WriteReg(R8, 0x00000000)
T2F8C 000:629.459 - 0.005ms returns 0
T2F8C 000:629.463 JLINK_WriteReg(R9, 0x200002B4)
T2F8C 000:629.466 - 0.004ms returns 0
T2F8C 000:629.470 JLINK_WriteReg(R10, 0x00000000)
T2F8C 000:629.473 - 0.004ms returns 0
T2F8C 000:629.477 JLINK_WriteReg(R11, 0x00000000)
T2F8C 000:629.480 - 0.004ms returns 0
T2F8C 000:629.484 JLINK_WriteReg(R12, 0x00000000)
T2F8C 000:629.487 - 0.004ms returns 0
T2F8C 000:629.491 JLINK_WriteReg(R13 (SP), 0x20001000)
T2F8C 000:629.495 - 0.005ms returns 0
T2F8C 000:629.499 JLINK_WriteReg(R14, 0x20000001)
T2F8C 000:629.503 - 0.004ms returns 0
T2F8C 000:629.506 JLINK_WriteReg(R15 (PC), 0x20000208)
T2F8C 000:629.510 - 0.005ms returns 0
T2F8C 000:629.513 JLINK_WriteReg(XPSR, 0x01000000)
T2F8C 000:629.517 - 0.005ms returns 0
T2F8C 000:629.521 JLINK_WriteReg(MSP, 0x20001000)
T2F8C 000:629.524 - 0.004ms returns 0
T2F8C 000:629.528 JLINK_WriteReg(PSP, 0x20001000)
T2F8C 000:629.531 - 0.004ms returns 0
T2F8C 000:629.535 JLINK_WriteReg(CFBP, 0x00000000)
T2F8C 000:629.538 - 0.004ms returns 0
T2F8C 000:629.542 JLINK_SetBPEx(Addr = 0x20000000, Type = 0xFFFFFFF2)
T2F8C 000:629.546 - 0.005ms returns 0x0000000E
T2F8C 000:629.550 JLINK_Go()
T2F8C 000:629.557   CPU_ReadMem(4 bytes @ 0xE0001000)
T2F8C 000:632.310 - 2.770ms
T2F8C 000:632.326 JLINK_IsHalted()
T2F8C 000:632.854 - 0.534ms returns FALSE
T2F8C 000:632.864 JLINK_HasError()
T2F8C 000:637.103 JLINK_IsHalted()
T2F8C 000:639.466   CPU_ReadMem(2 bytes @ 0x20000000)
T2F8C 000:639.961 - 2.863ms returns TRUE
T2F8C 000:639.971 JLINK_ReadReg(R15 (PC))
T2F8C 000:639.977 - 0.008ms returns 0x20000000
T2F8C 000:639.981 JLINK_ClrBPEx(BPHandle = 0x0000000E)
T2F8C 000:639.985 - 0.005ms returns 0x00
T2F8C 000:639.990 JLINK_ReadReg(R0)
T2F8C 000:639.993 - 0.004ms returns 0x00000000
T2F8C 000:640.368 JLINK_WriteMem(0x200002B8, 0x100 Bytes, ...)
T2F8C 000:640.378   Data:  01 31 F7 D3 EA E7 DD E9 0B 01 00 22 6F F3 1F 30 ...
T2F8C 000:640.389   CPU_WriteMem(256 bytes @ 0x200002B8)
T2F8C 000:641.835 - 1.476ms returns 0x100
T2F8C 000:641.851 JLINK_HasError()
T2F8C 000:641.856 JLINK_WriteReg(R0, 0x08000300)
T2F8C 000:641.862 - 0.007ms returns 0
T2F8C 000:641.866 JLINK_WriteReg(R1, 0x00000100)
T2F8C 000:641.869 - 0.005ms returns 0
T2F8C 000:641.873 JLINK_WriteReg(R2, 0x200002B8)
T2F8C 000:641.876 - 0.004ms returns 0
T2F8C 000:641.880 JLINK_WriteReg(R3, 0x00000000)
T2F8C 000:641.883 - 0.004ms returns 0
T2F8C 000:641.887 JLINK_WriteReg(R4, 0x00000000)
T2F8C 000:641.890 - 0.004ms returns 0
T2F8C 000:641.894 JLINK_WriteReg(R5, 0x00000000)
T2F8C 000:641.897 - 0.004ms returns 0
T2F8C 000:641.901 JLINK_WriteReg(R6, 0x00000000)
T2F8C 000:641.905 - 0.005ms returns 0
T2F8C 000:641.909 JLINK_WriteReg(R7, 0x00000000)
T2F8C 000:641.912 - 0.004ms returns 0
T2F8C 000:641.916 JLINK_WriteReg(R8, 0x00000000)
T2F8C 000:641.919 - 0.005ms returns 0
T2F8C 000:641.923 JLINK_WriteReg(R9, 0x200002B4)
T2F8C 000:641.926 - 0.005ms returns 0
T2F8C 000:641.930 JLINK_WriteReg(R10, 0x00000000)
T2F8C 000:641.934 - 0.004ms returns 0
T2F8C 000:641.937 JLINK_WriteReg(R11, 0x00000000)
T2F8C 000:641.941 - 0.004ms returns 0
T2F8C 000:641.944 JLINK_WriteReg(R12, 0x00000000)
T2F8C 000:641.948 - 0.004ms returns 0
T2F8C 000:641.952 JLINK_WriteReg(R13 (SP), 0x20001000)
T2F8C 000:641.955 - 0.005ms returns 0
T2F8C 000:641.959 JLINK_WriteReg(R14, 0x20000001)
T2F8C 000:641.963 - 0.004ms returns 0
T2F8C 000:641.966 JLINK_WriteReg(R15 (PC), 0x20000208)
T2F8C 000:641.970 - 0.005ms returns 0
T2F8C 000:641.974 JLINK_WriteReg(XPSR, 0x01000000)
T2F8C 000:641.977 - 0.004ms returns 0
T2F8C 000:641.981 JLINK_WriteReg(MSP, 0x20001000)
T2F8C 000:641.984 - 0.005ms returns 0
T2F8C 000:641.988 JLINK_WriteReg(PSP, 0x20001000)
T2F8C 000:641.991 - 0.005ms returns 0
T2F8C 000:641.995 JLINK_WriteReg(CFBP, 0x00000000)
T2F8C 000:641.998 - 0.004ms returns 0
T2F8C 000:642.002 JLINK_SetBPEx(Addr = 0x20000000, Type = 0xFFFFFFF2)
